
T20360 000:318 SEGGER J-Link V5.12e Log File (0005ms, 0270ms total)
T20360 000:318 DLL Compiled: Apr 29 2016 15:03:58 (0005ms, 0270ms total)
T20360 000:318 Logging started @ 2017-11-29 15:59 (0005ms, 0270ms total)
T20360 000:323 JLINK_SetWarnOutHandler(...) (0000ms, 0270ms total)
T20360 000:323 JLINK_OpenEx(...)
Firmware: J-Link OB-STM32F072-CortexM compiled Mar  8 2020 11:15:54
Hardware: V1.00
Feature(s): GDB, RDI, FlashBP, FlashDL, JFlash, RDDI  returns O.K. (0266ms, 0536ms total)
T20360 000:589 JLINK_SetErrorOutHandler(...) (0000ms, 0536ms total)
T20360 000:589 JLINK_ExecCommand("ProjectFile = "D:\00\L4_master-OS -single\L4_master_v16\MDK-ARM\JLinkSettings.ini"", ...)Device "STM32L476RE" selected.  returns 0x00 (0013ms, 0549ms total)
T20360 000:608 JLINK_ExecCommand("Device = STM32L471RETx", ...)Device "STM32L476RE" selected.  returns 0x00 (0009ms, 0558ms total)
T20360 000:617 JLINK_ExecCommand("DisableConnectionTimeout", ...)  returns 0x01 (0000ms, 0558ms total)
T20360 000:617 JLINK_GetHardwareVersion()  returns 0x2710 (0000ms, 0558ms total)
T20360 000:617 JLINK_GetDLLVersion()  returns 51205 (0000ms, 0558ms total)
T20360 000:617 JLINK_GetFirmwareString(...) (0000ms, 0558ms total)
T20360 000:631 JLINK_GetDLLVersion()  returns 51205 (0000ms, 0558ms total)
T20360 000:631 JLINK_GetCompileDateTime() (0000ms, 0558ms total)
T20360 000:633 JLINK_GetFirmwareString(...) (0000ms, 0558ms total)
T20360 000:636 JLINK_GetHardwareVersion()  returns 0x2710 (0000ms, 0558ms total)
T20360 000:643 JLINK_TIF_Select(JLINKARM_TIF_SWD)  returns 0x00 (0001ms, 0559ms total)
T20360 000:644 JLINK_SetSpeed(50000) (0000ms, 0559ms total)
T20360 000:644 JLINK_GetId() >0x108 TIF>Found SWD-DP with ID 0x2BA01477 >0x0D TIF> >0x28 TIF> >0x0D TIF> >0x28 TIF> >0x0D TIF> >0x28 TIF> >0x0D TIF> >0x28 TIF> >0x0D TIF> >0x21 TIF> >0x0D TIF> >0x28 TIF> >0x0D TIF> >0x28 TIF> >0x0D TIF> >0x28 TIF> >0x0D TIF> >0x21 TIF> >0x0D TIF> >0x21 TIF> >0x0D TIF> >0x28 TIF> >0x0D TIF> >0x21 TIF> >0x0D TIF> >0x21 TIF> >0x0D TIF> >0x28 TIF> >0x0D TIF> >0x21 TIF> >0x0D TIF> >0x21 TIF> >0x0D TIF> >0x28 TIF> >0x0D TIF> >0x21 TIF> >0x0D TIF> >0x21 TIF> >0x108 TIF>
Found SWD-DP with ID 0x2BA01477 >0x0D TIF> >0x28 TIF> >0x0D TIF> >0x28 TIF> >0x0D TIF> >0x28 TIF> >0x0D TIF> >0x28 TIF> >0x0D TIF> >0x21 TIF> >0x0D TIF> >0x28 TIF> >0x0D TIF> >0x28 TIF> >0x0D TIF> >0x21 TIF> >0x0D TIF> >0x21 TIF> >0x0D TIF> >0x21 TIF> >0x0D TIF> >0x28 TIF> >0x0D TIF> >0x28 TIF> >0x0D TIF> >0x28 TIF> >0x0D TIF> >0x21 TIF> >0x0D TIF> >0x21 TIF> >0x0D TIF> >0x28 TIF> >0x0D TIF> >0x21 TIF> >0x0D TIF> >0x21 TIF>Found Cortex-M4 r0p1, Little endian. -- CPU_ReadMem(4 bytes @ 0xE000EDF0)
 -- CPU_ReadMem(4 bytes @ 0xE0002000)FPUnit: 6 code (BP) slots and 2 literal slots -- CPU_ReadMem(4 bytes @ 0xE000EDFC) -- CPU_ReadMem(4 bytes @ 0xE0001000) -- CPU_WriteMem(4 bytes @ 0xE0001000) -- CPU_ReadMem(4 bytes @ 0xE000ED88) -- CPU_WriteMem(4 bytes @ 0xE000ED88) -- CPU_ReadMem(4 bytes @ 0xE000ED88) -- CPU_WriteMem(4 bytes @ 0xE000ED88)CoreSight components:ROMTbl 0 @ E00FF000 -- CPU_ReadMem(16 bytes @ 0xE00FF000) -- CPU_ReadMem(16 bytes @ 0xE000EFF0) -- CPU_ReadMem(16 bytes @ 0xE000EFE0)
ROMTbl 0 [0]: FFF0F000, CID: B105E00D, PID: 000BB00C SCS -- CPU_ReadMem(16 bytes @ 0xE0001FF0) -- CPU_ReadMem(16 bytes @ 0xE0001FE0)ROMTbl 0 [1]: FFF02000, CID: B105E00D, PID: 003BB002 DWT -- CPU_ReadMem(16 bytes @ 0xE0002FF0) -- CPU_ReadMem(16 bytes @ 0xE0002FE0)ROMTbl 0 [2]: FFF03000, CID: B105E00D, PID: 002BB003 FPB -- CPU_ReadMem(16 bytes @ 0xE0000FF0) -- CPU_ReadMem(16 bytes @ 0xE0000FE0)ROMTbl 0 [3]: FFF01000, CID: B105E00D, PID: 003BB001 ITM -- CPU_ReadMem(16 bytes @ 0xE00FF010)
 -- CPU_ReadMem(16 bytes @ 0xE0040FF0) -- CPU_ReadMem(16 bytes @ 0xE0040FE0)ROMTbl 0 [4]: FFF41000, CID: B105900D, PID: 000BB9A1 TPIU -- CPU_ReadMem(16 bytes @ 0xE0041FF0) -- CPU_ReadMem(16 bytes @ 0xE0041FE0)ROMTbl 0 [5]: FFF42000, CID: B105900D, PID: 000BB925 ETM >0x0D TIF> >0x21 TIF>  returns 0x2BA01477 (0055ms, 0614ms total)
T20360 000:699 JLINK_GetDLLVersion()  returns 51205 (0000ms, 0614ms total)
T20360 000:699 JLINK_CORE_GetFound()  returns 0xE0000FF (0000ms, 0614ms total)
T20360 000:699 JLINK_GetDebugInfo(0x100) -- Value=0xE00FF000  returns 0x00 (0000ms, 0614ms total)
T20360 000:700 JLINK_GetDebugInfo(0x100) -- Value=0xE00FF000  returns 0x00 (0001ms, 0615ms total)
T20360 000:701 JLINK_GetDebugInfo(0x101) -- Value=0xE0041000  returns 0x00 (0000ms, 0615ms total)
T20360 000:701 JLINK_GetDebugInfo(0x102) -- Value=0x00000000  returns 0x00 (0000ms, 0615ms total)
T20360 000:701 JLINK_GetDebugInfo(0x103) -- Value=0xE0040000  returns 0x00 (0000ms, 0615ms total)
T20360 000:701 JLINK_GetDebugInfo(0x104) -- Value=0xE0000000  returns 0x00 (0000ms, 0615ms total)
T20360 000:701 JLINK_GetDebugInfo(0x105) -- Value=0xE0001000  returns 0x00 (0000ms, 0615ms total)
T20360 000:701 JLINK_GetDebugInfo(0x106) -- Value=0xE0002000  returns 0x00 (0000ms, 0615ms total)
T20360 000:701 JLINK_GetDebugInfo(0x107) -- Value=0xE000E000  returns 0x00 (0000ms, 0615ms total)
T20360 000:701 JLINK_GetDebugInfo(0x10C) -- Value=0xE000EDF0  returns 0x00 (0000ms, 0615ms total)
T20360 000:701 JLINK_ReadMemU32(0xE000EF40, 0x0001 Items, ...) -- CPU is running -- CPU_ReadMem(4 bytes @ 0xE000EF40) - Data: 21 00 11 10  returns 0x01 (0000ms, 0615ms total)
T20360 000:701 JLINK_ReadMemU32(0xE000EF44, 0x0001 Items, ...) -- CPU is running -- CPU_ReadMem(4 bytes @ 0xE000EF44) - Data: 11 00 00 11  returns 0x01 (0001ms, 0616ms total)
T20360 000:702 JLINK_ReadMemU32(0xE000ED00, 0x0001 Items, ...) -- CPU is running -- CPU_ReadMem(4 bytes @ 0xE000ED00) - Data: 41 C2 0F 41  returns 0x01 (0000ms, 0616ms total)
T20360 000:702 JLINK_SetResetType(JLINKARM_RESET_TYPE_NORMAL)  returns JLINKARM_RESET_TYPE_NORMAL (0000ms, 0616ms total)
T20360 000:702 JLINK_Reset() -- CPU is running -- CPU_WriteMem(4 bytes @ 0xE000EDF0) -- CPU is running -- CPU_WriteMem(4 bytes @ 0xE000EDFC) >0x35 TIF> -- CPU is running -- CPU_WriteMem(4 bytes @ 0xE000ED0C) -- CPU is running -- CPU_ReadMem(4 bytes @ 0xE000EDF0) -- CPU is running -- CPU_ReadMem(4 bytes @ 0xE000EDF0) -- CPU is running -- CPU_WriteMem(4 bytes @ 0xE000EDF0) -- CPU is running -- CPU_WriteMem(4 bytes @ 0xE000EDFC) -- CPU is running -- CPU_ReadMem(4 bytes @ 0xE000EDF0)
 -- CPU_WriteMem(4 bytes @ 0xE0002000) -- CPU_ReadMem(4 bytes @ 0xE000EDFC) -- CPU_ReadMem(4 bytes @ 0xE0001000) (0021ms, 0637ms total)
T20360 000:723 JLINK_Halt()  returns 0x00 (0000ms, 0637ms total)
T20360 000:723 JLINK_IsHalted()  returns TRUE (0000ms, 0637ms total)
T20360 000:723 JLINK_ReadMemU32(0xE000EDF0, 0x0001 Items, ...) -- CPU_ReadMem(4 bytes @ 0xE000EDF0) - Data: 03 00 03 00  returns 0x01 (0001ms, 0638ms total)
T20360 000:724 JLINK_WriteU32(0xE000EDF0, 0xA05F0003) -- CPU_WriteMem(4 bytes @ 0xE000EDF0)  returns 0x00 (0000ms, 0638ms total)
T20360 000:724 JLINK_WriteU32(0xE000EDFC, 0x01000000) -- CPU_WriteMem(4 bytes @ 0xE000EDFC)  returns 0x00 (0001ms, 0639ms total)
T20360 000:732 JLINK_GetHWStatus(...)  returns 0x00 (0000ms, 0639ms total)
T20360 000:737 JLINK_GetNumBPUnits(Type = 0xFFFFFF00)  returns 0x06 (0000ms, 0639ms total)
T20360 000:737 JLINK_GetNumBPUnits(Type = 0xF0)  returns 0x2000 (0000ms, 0639ms total)
T20360 000:737 JLINK_GetNumWPUnits()  returns 0x04 (0000ms, 0639ms total)
T20360 000:741 JLINK_GetSpeed()  returns 0x7D0 (0000ms, 0639ms total)
T20360 000:744 JLINK_ReadMemU32(0xE000E004, 0x0001 Items, ...) -- CPU_ReadMem(4 bytes @ 0xE000E004) - Data: 02 00 00 00  returns 0x01 (0000ms, 0639ms total)
T20360 000:745 JLINK_ReadMemU32(0xE000E004, 0x0001 Items, ...) -- CPU_ReadMem(4 bytes @ 0xE000E004) - Data: 02 00 00 00  returns 0x01 (0000ms, 0640ms total)
T20360 000:745 JLINK_WriteMem(0xE0001000, 0x001C Bytes, ...) - Data: 01 00 00 00 00 00 00 00 00 00 00 00 00 00 00 00 ... -- CPU_WriteMem(28 bytes @ 0xE0001000)  returns 0x1C (0001ms, 0641ms total)
T20360 000:746 JLINK_ReadMem (0xE0001000, 0x001C Bytes, ...) -- CPU_ReadMem(28 bytes @ 0xE0001000) - Data: 01 00 00 40 00 00 00 00 00 00 00 00 00 00 00 00 ...  returns 0x00 (0001ms, 0642ms total)
T20360 000:747 JLINK_Halt()  returns 0x00 (0000ms, 0642ms total)
T20360 000:747 JLINK_IsHalted()  returns TRUE (0000ms, 0642ms total)
T20360 000:750 JLINK_WriteMem(0x20000000, 0x0190 Bytes, ...) - Data: 00 BE 0A E0 0D 78 2D 06 68 40 08 24 40 00 00 D3 ... -- CPU_WriteMem(400 bytes @ 0x20000000)  returns 0x190 (0005ms, 0647ms total)
T20360 000:755 JLINK_WriteReg(R0, 0x08000000)  returns 0x00 (0000ms, 0647ms total)
T20360 000:755 JLINK_WriteReg(R1, 0x003D0900)  returns 0x00 (0000ms, 0647ms total)
T20360 000:755 JLINK_WriteReg(R2, 0x00000001)  returns 0x00 (0000ms, 0647ms total)
T20360 000:755 JLINK_WriteReg(R3, 0x00000000)  returns 0x00 (0000ms, 0647ms total)
T20360 000:755 JLINK_WriteReg(R4, 0x00000000)  returns 0x00 (0000ms, 0647ms total)
T20360 000:755 JLINK_WriteReg(R5, 0x00000000)  returns 0x00 (0000ms, 0647ms total)
T20360 000:755 JLINK_WriteReg(R6, 0x00000000)  returns 0x00 (0000ms, 0647ms total)
T20360 000:755 JLINK_WriteReg(R7, 0x00000000)  returns 0x00 (0000ms, 0647ms total)
T20360 000:755 JLINK_WriteReg(R8, 0x00000000)  returns 0x00 (0000ms, 0647ms total)
T20360 000:755 JLINK_WriteReg(R9, 0x2000018C)  returns 0x00 (0000ms, 0647ms total)
T20360 000:755 JLINK_WriteReg(R10, 0x00000000)  returns 0x00 (0000ms, 0647ms total)
T20360 000:755 JLINK_WriteReg(R11, 0x00000000)  returns 0x00 (0000ms, 0647ms total)
T20360 000:755 JLINK_WriteReg(R12, 0x00000000)  returns 0x00 (0000ms, 0647ms total)
T20360 000:755 JLINK_WriteReg(R13 (SP), 0x20001000)  returns 0x00 (0000ms, 0647ms total)
T20360 000:755 JLINK_WriteReg(R14, 0x20000001)  returns 0x00 (0000ms, 0647ms total)
T20360 000:755 JLINK_WriteReg(R15 (PC), 0x20000036)  returns 0x00 (0000ms, 0647ms total)
T20360 000:755 JLINK_WriteReg(XPSR, 0x01000000)  returns 0x00 (0000ms, 0647ms total)
T20360 000:755 JLINK_WriteReg(MSP, 0x20001000)  returns 0x00 (0000ms, 0647ms total)
T20360 000:755 JLINK_WriteReg(PSP, 0x20001000)  returns 0x00 (0000ms, 0647ms total)
T20360 000:755 JLINK_WriteReg(CFBP, 0x00000000)  returns 0x00 (0000ms, 0647ms total)
T20360 000:755 JLINK_SetBPEx(Addr = 0x20000000, Type = 0xFFFFFFF2) -- CPU_ReadMem(2 bytes @ 0x20000000)  returns 0x00000001 (0000ms, 0647ms total)
T20360 000:755 JLINK_Go() -- CPU_WriteMem(2 bytes @ 0x20000000) -- CPU_ReadMem(4 bytes @ 0xE0001000) -- CPU_WriteMem(4 bytes @ 0xE0002008) -- CPU_WriteMem(4 bytes @ 0xE000200C) -- CPU_WriteMem(4 bytes @ 0xE0002010) -- CPU_WriteMem(4 bytes @ 0xE0002014) -- CPU_WriteMem(4 bytes @ 0xE0002018) -- CPU_WriteMem(4 bytes @ 0xE000201C) -- CPU_WriteMem(4 bytes @ 0xE0001004) (0008ms, 0655ms total)
T20360 000:763 JLINK_IsHalted() -- CPU_ReadMem(2 bytes @ 0x20000000)  returns TRUE (0004ms, 0659ms total)
T20360 000:767 JLINK_ReadReg(R15 (PC))  returns 0x20000000 (0000ms, 0655ms total)
T20360 000:767 JLINK_ClrBPEx(BPHandle = 0x00000001)  returns 0x00 (0000ms, 0655ms total)
T20360 000:767 JLINK_ReadReg(R0)  returns 0x00000000 (0000ms, 0655ms total)
T20360 000:768 JLINK_WriteReg(R0, 0x08000000)  returns 0x00 (0000ms, 0655ms total)
T20360 000:768 JLINK_WriteReg(R1, 0x003D0900)  returns 0x00 (0000ms, 0655ms total)
T20360 000:768 JLINK_WriteReg(R2, 0x00000001)  returns 0x00 (0000ms, 0655ms total)
T20360 000:768 JLINK_WriteReg(R3, 0x00000000)  returns 0x00 (0000ms, 0655ms total)
T20360 000:768 JLINK_WriteReg(R4, 0x00000000)  returns 0x00 (0000ms, 0655ms total)
T20360 000:768 JLINK_WriteReg(R5, 0x00000000)  returns 0x00 (0000ms, 0655ms total)
T20360 000:768 JLINK_WriteReg(R6, 0x00000000)  returns 0x00 (0000ms, 0655ms total)
T20360 000:768 JLINK_WriteReg(R7, 0x00000000)  returns 0x00 (0000ms, 0655ms total)
T20360 000:768 JLINK_WriteReg(R8, 0x00000000)  returns 0x00 (0000ms, 0655ms total)
T20360 000:768 JLINK_WriteReg(R9, 0x2000018C)  returns 0x00 (0000ms, 0655ms total)
T20360 000:768 JLINK_WriteReg(R10, 0x00000000)  returns 0x00 (0000ms, 0655ms total)
T20360 000:768 JLINK_WriteReg(R11, 0x00000000)  returns 0x00 (0000ms, 0655ms total)
T20360 000:768 JLINK_WriteReg(R12, 0x00000000)  returns 0x00 (0000ms, 0655ms total)
T20360 000:768 JLINK_WriteReg(R13 (SP), 0x20001000)  returns 0x00 (0000ms, 0655ms total)
T20360 000:768 JLINK_WriteReg(R14, 0x20000001)  returns 0x00 (0000ms, 0655ms total)
T20360 000:768 JLINK_WriteReg(R15 (PC), 0x20000078)  returns 0x00 (0000ms, 0655ms total)
T20360 000:768 JLINK_WriteReg(XPSR, 0x01000000)  returns 0x00 (0000ms, 0655ms total)
T20360 000:768 JLINK_WriteReg(MSP, 0x20001000)  returns 0x00 (0000ms, 0655ms total)
T20360 000:768 JLINK_WriteReg(PSP, 0x20001000)  returns 0x00 (0000ms, 0655ms total)
T20360 000:768 JLINK_WriteReg(CFBP, 0x00000000)  returns 0x00 (0000ms, 0655ms total)
T20360 000:768 JLINK_SetBPEx(Addr = 0x20000000, Type = 0xFFFFFFF2)  returns 0x00000002 (0000ms, 0655ms total)
T20360 000:768 JLINK_Go() -- CPU_ReadMem(4 bytes @ 0xE0001000) (0002ms, 0657ms total)
T20360 000:770 JLINK_IsHalted()  returns FALSE (0002ms, 0659ms total)
T20360 000:824 JLINK_IsHalted() -- CPU_ReadMem(2 bytes @ 0x20000000)  returns TRUE (0005ms, 0662ms total)
T20360 000:829 JLINK_ReadReg(R15 (PC))  returns 0x20000000 (0000ms, 0657ms total)
T20360 000:829 JLINK_ClrBPEx(BPHandle = 0x00000002)  returns 0x00 (0000ms, 0657ms total)
T20360 000:829 JLINK_ReadReg(R0)  returns 0x00000000 (0000ms, 0657ms total)
T20360 000:881 JLINK_WriteReg(R0, 0x00000001)  returns 0x00 (0000ms, 0657ms total)
T20360 000:881 JLINK_WriteReg(R1, 0x003D0900)  returns 0x00 (0000ms, 0657ms total)
T20360 000:881 JLINK_WriteReg(R2, 0x00000001)  returns 0x00 (0000ms, 0657ms total)
T20360 000:881 JLINK_WriteReg(R3, 0x00000000)  returns 0x00 (0000ms, 0657ms total)
T20360 000:881 JLINK_WriteReg(R4, 0x00000000)  returns 0x00 (0000ms, 0657ms total)
T20360 000:881 JLINK_WriteReg(R5, 0x00000000)  returns 0x00 (0000ms, 0657ms total)
T20360 000:881 JLINK_WriteReg(R6, 0x00000000)  returns 0x00 (0000ms, 0657ms total)
T20360 000:881 JLINK_WriteReg(R7, 0x00000000)  returns 0x00 (0000ms, 0657ms total)
T20360 000:881 JLINK_WriteReg(R8, 0x00000000)  returns 0x00 (0000ms, 0657ms total)
T20360 000:881 JLINK_WriteReg(R9, 0x2000018C)  returns 0x00 (0000ms, 0657ms total)
T20360 000:881 JLINK_WriteReg(R10, 0x00000000)  returns 0x00 (0000ms, 0657ms total)
T20360 000:881 JLINK_WriteReg(R11, 0x00000000)  returns 0x00 (0000ms, 0657ms total)
T20360 000:881 JLINK_WriteReg(R12, 0x00000000)  returns 0x00 (0000ms, 0657ms total)
T20360 000:881 JLINK_WriteReg(R13 (SP), 0x20001000)  returns 0x00 (0000ms, 0657ms total)
T20360 000:881 JLINK_WriteReg(R14, 0x20000001)  returns 0x00 (0000ms, 0657ms total)
T20360 000:881 JLINK_WriteReg(R15 (PC), 0x20000066)  returns 0x00 (0000ms, 0657ms total)
T20360 000:881 JLINK_WriteReg(XPSR, 0x01000000)  returns 0x00 (0000ms, 0657ms total)
T20360 000:881 JLINK_WriteReg(MSP, 0x20001000)  returns 0x00 (0000ms, 0657ms total)
T20360 000:881 JLINK_WriteReg(PSP, 0x20001000)  returns 0x00 (0000ms, 0657ms total)
T20360 000:881 JLINK_WriteReg(CFBP, 0x00000000)  returns 0x00 (0000ms, 0657ms total)
T20360 000:881 JLINK_SetBPEx(Addr = 0x20000000, Type = 0xFFFFFFF2)  returns 0x00000003 (0001ms, 0658ms total)
T20360 000:882 JLINK_Go() -- CPU_ReadMem(4 bytes @ 0xE0001000) (0002ms, 0660ms total)
T20360 000:884 JLINK_IsHalted() -- CPU_ReadMem(2 bytes @ 0x20000000)  returns TRUE (0006ms, 0666ms total)
T20360 000:890 JLINK_ReadReg(R15 (PC))  returns 0x20000000 (0000ms, 0660ms total)
T20360 000:890 JLINK_ClrBPEx(BPHandle = 0x00000003)  returns 0x00 (0000ms, 0660ms total)
T20360 000:890 JLINK_ReadReg(R0)  returns 0x00000000 (0000ms, 0660ms total)
T20360 000:898 JLINK_WriteMem(0x20000000, 0x0190 Bytes, ...) - Data: 00 BE 0A E0 0D 78 2D 06 68 40 08 24 40 00 00 D3 ... -- CPU_WriteMem(400 bytes @ 0x20000000)  returns 0x190 (0004ms, 0664ms total)
T20360 000:903 JLINK_WriteReg(R0, 0x08000000)  returns 0x00 (0000ms, 0664ms total)
T20360 000:903 JLINK_WriteReg(R1, 0x003D0900)  returns 0x00 (0000ms, 0664ms total)
T20360 000:903 JLINK_WriteReg(R2, 0x00000002)  returns 0x00 (0000ms, 0664ms total)
T20360 000:903 JLINK_WriteReg(R3, 0x00000000)  returns 0x00 (0000ms, 0664ms total)
T20360 000:903 JLINK_WriteReg(R4, 0x00000000)  returns 0x00 (0000ms, 0664ms total)
T20360 000:903 JLINK_WriteReg(R5, 0x00000000)  returns 0x00 (0000ms, 0664ms total)
T20360 000:903 JLINK_WriteReg(R6, 0x00000000)  returns 0x00 (0000ms, 0664ms total)
T20360 000:903 JLINK_WriteReg(R7, 0x00000000)  returns 0x00 (0000ms, 0664ms total)
T20360 000:903 JLINK_WriteReg(R8, 0x00000000)  returns 0x00 (0000ms, 0664ms total)
T20360 000:903 JLINK_WriteReg(R9, 0x2000018C)  returns 0x00 (0000ms, 0664ms total)
T20360 000:903 JLINK_WriteReg(R10, 0x00000000)  returns 0x00 (0000ms, 0664ms total)
T20360 000:903 JLINK_WriteReg(R11, 0x00000000)  returns 0x00 (0000ms, 0664ms total)
T20360 000:903 JLINK_WriteReg(R12, 0x00000000)  returns 0x00 (0000ms, 0664ms total)
T20360 000:903 JLINK_WriteReg(R13 (SP), 0x20001000)  returns 0x00 (0000ms, 0664ms total)
T20360 000:903 JLINK_WriteReg(R14, 0x20000001)  returns 0x00 (0000ms, 0664ms total)
T20360 000:904 JLINK_WriteReg(R15 (PC), 0x20000036)  returns 0x00 (0000ms, 0664ms total)
T20360 000:904 JLINK_WriteReg(XPSR, 0x01000000)  returns 0x00 (0000ms, 0664ms total)
T20360 000:904 JLINK_WriteReg(MSP, 0x20001000)  returns 0x00 (0000ms, 0664ms total)
T20360 000:904 JLINK_WriteReg(PSP, 0x20001000)  returns 0x00 (0000ms, 0664ms total)
T20360 000:904 JLINK_WriteReg(CFBP, 0x00000000)  returns 0x00 (0000ms, 0664ms total)
T20360 000:904 JLINK_SetBPEx(Addr = 0x20000000, Type = 0xFFFFFFF2) -- CPU_ReadMem(2 bytes @ 0x20000000)  returns 0x00000004 (0001ms, 0665ms total)
T20360 000:905 JLINK_Go() -- CPU_WriteMem(2 bytes @ 0x20000000) -- CPU_ReadMem(4 bytes @ 0xE0001000) (0004ms, 0669ms total)
T20360 000:909 JLINK_IsHalted() -- CPU_ReadMem(2 bytes @ 0x20000000)  returns TRUE (0006ms, 0675ms total)
T20360 000:915 JLINK_ReadReg(R15 (PC))  returns 0x20000000 (0000ms, 0669ms total)
T20360 000:915 JLINK_ClrBPEx(BPHandle = 0x00000004)  returns 0x00 (0000ms, 0669ms total)
T20360 000:915 JLINK_ReadReg(R0)  returns 0x00000000 (0000ms, 0669ms total)
T20360 000:915 JLINK_WriteMem(0x20000190, 0x0400 Bytes, ...) - Data: 08 60 01 20 79 02 00 08 39 5B 00 08 59 52 00 08 ... -- CPU_WriteMem(1024 bytes @ 0x20000190)  returns 0x400 (0011ms, 0680ms total)
T20360 000:926 JLINK_WriteReg(R0, 0x08000000)  returns 0x00 (0000ms, 0680ms total)
T20360 000:926 JLINK_WriteReg(R1, 0x00000400)  returns 0x00 (0000ms, 0680ms total)
T20360 000:926 JLINK_WriteReg(R2, 0x20000190)  returns 0x00 (0000ms, 0680ms total)
T20360 000:926 JLINK_WriteReg(R3, 0x00000000)  returns 0x00 (0000ms, 0680ms total)
T20360 000:926 JLINK_WriteReg(R4, 0x00000000)  returns 0x00 (0000ms, 0680ms total)
T20360 000:926 JLINK_WriteReg(R5, 0x00000000)  returns 0x00 (0000ms, 0680ms total)
T20360 000:926 JLINK_WriteReg(R6, 0x00000000)  returns 0x00 (0000ms, 0680ms total)
T20360 000:926 JLINK_WriteReg(R7, 0x00000000)  returns 0x00 (0000ms, 0680ms total)
T20360 000:926 JLINK_WriteReg(R8, 0x00000000)  returns 0x00 (0000ms, 0680ms total)
T20360 000:927 JLINK_WriteReg(R9, 0x2000018C)  returns 0x00 (0000ms, 0681ms total)
T20360 000:927 JLINK_WriteReg(R10, 0x00000000)  returns 0x00 (0000ms, 0681ms total)
T20360 000:927 JLINK_WriteReg(R11, 0x00000000)  returns 0x00 (0000ms, 0681ms total)
T20360 000:927 JLINK_WriteReg(R12, 0x00000000)  returns 0x00 (0000ms, 0681ms total)
T20360 000:927 JLINK_WriteReg(R13 (SP), 0x20001000)  returns 0x00 (0000ms, 0681ms total)
T20360 000:927 JLINK_WriteReg(R14, 0x20000001)  returns 0x00 (0000ms, 0681ms total)
T20360 000:927 JLINK_WriteReg(R15 (PC), 0x2000011A)  returns 0x00 (0000ms, 0681ms total)
T20360 000:927 JLINK_WriteReg(XPSR, 0x01000000)  returns 0x00 (0000ms, 0681ms total)
T20360 000:927 JLINK_WriteReg(MSP, 0x20001000)  returns 0x00 (0000ms, 0681ms total)
T20360 000:927 JLINK_WriteReg(PSP, 0x20001000)  returns 0x00 (0000ms, 0681ms total)
T20360 000:927 JLINK_WriteReg(CFBP, 0x00000000)  returns 0x00 (0000ms, 0681ms total)
T20360 000:927 JLINK_SetBPEx(Addr = 0x20000000, Type = 0xFFFFFFF2)  returns 0x00000005 (0000ms, 0681ms total)
T20360 000:927 JLINK_Go() -- CPU_ReadMem(4 bytes @ 0xE0001000) (0003ms, 0684ms total)
T20360 000:931 JLINK_IsHalted()  returns FALSE (0000ms, 0684ms total)
T20360 000:960 JLINK_IsHalted() -- CPU_ReadMem(2 bytes @ 0x20000000)  returns TRUE (0005ms, 0689ms total)
T20360 000:965 JLINK_ReadReg(R15 (PC))  returns 0x20000000 (0000ms, 0684ms total)
T20360 000:965 JLINK_ClrBPEx(BPHandle = 0x00000005)  returns 0x00 (0000ms, 0684ms total)
T20360 000:965 JLINK_ReadReg(R0)  returns 0x00000000 (0001ms, 0685ms total)
T20360 000:967 JLINK_WriteMem(0x20000190, 0x0400 Bytes, ...) - Data: 00 42 02 EA 07 52 CD E9 00 42 00 1C 41 F5 80 11 ... -- CPU_WriteMem(1024 bytes @ 0x20000190)  returns 0x400 (0011ms, 0696ms total)
T20360 000:978 JLINK_WriteReg(R0, 0x08000400)  returns 0x00 (0000ms, 0696ms total)
T20360 000:978 JLINK_WriteReg(R1, 0x00000400)  returns 0x00 (0000ms, 0696ms total)
T20360 000:978 JLINK_WriteReg(R2, 0x20000190)  returns 0x00 (0000ms, 0696ms total)
T20360 000:978 JLINK_WriteReg(R3, 0x00000000)  returns 0x00 (0000ms, 0696ms total)
T20360 000:978 JLINK_WriteReg(R4, 0x00000000)  returns 0x00 (0000ms, 0696ms total)
T20360 000:978 JLINK_WriteReg(R5, 0x00000000)  returns 0x00 (0000ms, 0696ms total)
T20360 000:978 JLINK_WriteReg(R6, 0x00000000)  returns 0x00 (0000ms, 0696ms total)
T20360 000:978 JLINK_WriteReg(R7, 0x00000000)  returns 0x00 (0000ms, 0696ms total)
T20360 000:978 JLINK_WriteReg(R8, 0x00000000)  returns 0x00 (0000ms, 0696ms total)
T20360 000:978 JLINK_WriteReg(R9, 0x2000018C)  returns 0x00 (0000ms, 0696ms total)
T20360 000:978 JLINK_WriteReg(R10, 0x00000000)  returns 0x00 (0000ms, 0696ms total)
T20360 000:978 JLINK_WriteReg(R11, 0x00000000)  returns 0x00 (0000ms, 0696ms total)
T20360 000:978 JLINK_WriteReg(R12, 0x00000000)  returns 0x00 (0000ms, 0696ms total)
T20360 000:979 JLINK_WriteReg(R13 (SP), 0x20001000)  returns 0x00 (0000ms, 0697ms total)
T20360 000:979 JLINK_WriteReg(R14, 0x20000001)  returns 0x00 (0000ms, 0697ms total)
T20360 000:979 JLINK_WriteReg(R15 (PC), 0x2000011A)  returns 0x00 (0000ms, 0697ms total)
T20360 000:979 JLINK_WriteReg(XPSR, 0x01000000)  returns 0x00 (0000ms, 0697ms total)
T20360 000:979 JLINK_WriteReg(MSP, 0x20001000)  returns 0x00 (0000ms, 0697ms total)
T20360 000:979 JLINK_WriteReg(PSP, 0x20001000)  returns 0x00 (0000ms, 0697ms total)
T20360 000:979 JLINK_WriteReg(CFBP, 0x00000000)  returns 0x00 (0000ms, 0697ms total)
T20360 000:979 JLINK_SetBPEx(Addr = 0x20000000, Type = 0xFFFFFFF2)  returns 0x00000006 (0000ms, 0697ms total)
T20360 000:979 JLINK_Go() -- CPU_ReadMem(4 bytes @ 0xE0001000) (0003ms, 0700ms total)
T20360 000:982 JLINK_IsHalted()  returns FALSE (0001ms, 0701ms total)
T20360 000:985 JLINK_IsHalted()  returns FALSE (0000ms, 0700ms total)
T20360 000:987 JLINK_IsHalted()  returns FALSE (0000ms, 0700ms total)
T20360 000:989 JLINK_IsHalted()  returns FALSE (0000ms, 0700ms total)
T20360 000:991 JLINK_IsHalted()  returns FALSE (0000ms, 0700ms total)
T20360 000:993 JLINK_IsHalted()  returns FALSE (0000ms, 0700ms total)
T20360 000:995 JLINK_IsHalted() -- CPU_ReadMem(2 bytes @ 0x20000000)  returns TRUE (0005ms, 0705ms total)
T20360 001:000 JLINK_ReadReg(R15 (PC))  returns 0x20000000 (0000ms, 0700ms total)
T20360 001:000 JLINK_ClrBPEx(BPHandle = 0x00000006)  returns 0x00 (0000ms, 0700ms total)
T20360 001:000 JLINK_ReadReg(R0)  returns 0x00000000 (0000ms, 0700ms total)
T20360 001:002 JLINK_WriteMem(0x20000190, 0x0400 Bytes, ...) - Data: 92 46 9B 46 11 B1 B1 FA 81 F2 02 E0 B0 FA 80 F2 ... -- CPU_WriteMem(1024 bytes @ 0x20000190)  returns 0x400 (0010ms, 0710ms total)
T20360 001:012 JLINK_WriteReg(R0, 0x08000800)  returns 0x00 (0000ms, 0710ms total)
T20360 001:012 JLINK_WriteReg(R1, 0x00000400)  returns 0x00 (0000ms, 0710ms total)
T20360 001:012 JLINK_WriteReg(R2, 0x20000190)  returns 0x00 (0000ms, 0710ms total)
T20360 001:012 JLINK_WriteReg(R3, 0x00000000)  returns 0x00 (0000ms, 0710ms total)
T20360 001:012 JLINK_WriteReg(R4, 0x00000000)  returns 0x00 (0000ms, 0710ms total)
T20360 001:012 JLINK_WriteReg(R5, 0x00000000)  returns 0x00 (0000ms, 0710ms total)
T20360 001:012 JLINK_WriteReg(R6, 0x00000000)  returns 0x00 (0000ms, 0710ms total)
T20360 001:012 JLINK_WriteReg(R7, 0x00000000)  returns 0x00 (0000ms, 0710ms total)
T20360 001:012 JLINK_WriteReg(R8, 0x00000000)  returns 0x00 (0000ms, 0710ms total)
T20360 001:012 JLINK_WriteReg(R9, 0x2000018C)  returns 0x00 (0000ms, 0710ms total)
T20360 001:012 JLINK_WriteReg(R10, 0x00000000)  returns 0x00 (0000ms, 0710ms total)
T20360 001:012 JLINK_WriteReg(R11, 0x00000000)  returns 0x00 (0001ms, 0711ms total)
T20360 001:013 JLINK_WriteReg(R12, 0x00000000)  returns 0x00 (0000ms, 0711ms total)
T20360 001:013 JLINK_WriteReg(R13 (SP), 0x20001000)  returns 0x00 (0000ms, 0711ms total)
T20360 001:013 JLINK_WriteReg(R14, 0x20000001)  returns 0x00 (0000ms, 0711ms total)
T20360 001:013 JLINK_WriteReg(R15 (PC), 0x2000011A)  returns 0x00 (0000ms, 0711ms total)
T20360 001:013 JLINK_WriteReg(XPSR, 0x01000000)  returns 0x00 (0000ms, 0711ms total)
T20360 001:013 JLINK_WriteReg(MSP, 0x20001000)  returns 0x00 (0000ms, 0711ms total)
T20360 001:013 JLINK_WriteReg(PSP, 0x20001000)  returns 0x00 (0000ms, 0711ms total)
T20360 001:013 JLINK_WriteReg(CFBP, 0x00000000)  returns 0x00 (0000ms, 0711ms total)
T20360 001:013 JLINK_SetBPEx(Addr = 0x20000000, Type = 0xFFFFFFF2)  returns 0x00000007 (0000ms, 0711ms total)
T20360 001:013 JLINK_Go() -- CPU_ReadMem(4 bytes @ 0xE0001000) (0004ms, 0715ms total)
T20360 001:017 JLINK_IsHalted()  returns FALSE (0001ms, 0716ms total)
T20360 001:020 JLINK_IsHalted()  returns FALSE (0000ms, 0715ms total)
T20360 001:022 JLINK_IsHalted()  returns FALSE (0000ms, 0715ms total)
T20360 001:027 JLINK_IsHalted()  returns FALSE (0000ms, 0715ms total)
T20360 001:029 JLINK_IsHalted() -- CPU_ReadMem(2 bytes @ 0x20000000)  returns TRUE (0005ms, 0720ms total)
T20360 001:034 JLINK_ReadReg(R15 (PC))  returns 0x20000000 (0000ms, 0715ms total)
T20360 001:034 JLINK_ClrBPEx(BPHandle = 0x00000007)  returns 0x00 (0000ms, 0715ms total)
T20360 001:035 JLINK_ReadReg(R0)  returns 0x00000000 (0000ms, 0715ms total)
T20360 001:035 JLINK_WriteMem(0x20000190, 0x0400 Bytes, ...) - Data: 9B FD 31 20 00 F0 55 F8 00 90 9D F8 00 10 0A A0 ... -- CPU_WriteMem(1024 bytes @ 0x20000190)  returns 0x400 (0011ms, 0726ms total)
T20360 001:046 JLINK_WriteReg(R0, 0x08000C00)  returns 0x00 (0000ms, 0726ms total)
T20360 001:046 JLINK_WriteReg(R1, 0x00000400)  returns 0x00 (0000ms, 0726ms total)
T20360 001:046 JLINK_WriteReg(R2, 0x20000190)  returns 0x00 (0000ms, 0726ms total)
T20360 001:046 JLINK_WriteReg(R3, 0x00000000)  returns 0x00 (0000ms, 0726ms total)
T20360 001:046 JLINK_WriteReg(R4, 0x00000000)  returns 0x00 (0000ms, 0726ms total)
T20360 001:046 JLINK_WriteReg(R5, 0x00000000)  returns 0x00 (0000ms, 0726ms total)
T20360 001:046 JLINK_WriteReg(R6, 0x00000000)  returns 0x00 (0000ms, 0726ms total)
T20360 001:046 JLINK_WriteReg(R7, 0x00000000)  returns 0x00 (0000ms, 0726ms total)
T20360 001:046 JLINK_WriteReg(R8, 0x00000000)  returns 0x00 (0000ms, 0726ms total)
T20360 001:046 JLINK_WriteReg(R9, 0x2000018C)  returns 0x00 (0000ms, 0726ms total)
T20360 001:046 JLINK_WriteReg(R10, 0x00000000)  returns 0x00 (0000ms, 0726ms total)
T20360 001:046 JLINK_WriteReg(R11, 0x00000000)  returns 0x00 (0000ms, 0726ms total)
T20360 001:046 JLINK_WriteReg(R12, 0x00000000)  returns 0x00 (0000ms, 0726ms total)
T20360 001:046 JLINK_WriteReg(R13 (SP), 0x20001000)  returns 0x00 (0000ms, 0726ms total)
T20360 001:046 JLINK_WriteReg(R14, 0x20000001)  returns 0x00 (0000ms, 0726ms total)
T20360 001:046 JLINK_WriteReg(R15 (PC), 0x2000011A)  returns 0x00 (0000ms, 0726ms total)
T20360 001:046 JLINK_WriteReg(XPSR, 0x01000000)  returns 0x00 (0000ms, 0726ms total)
T20360 001:046 JLINK_WriteReg(MSP, 0x20001000)  returns 0x00 (0000ms, 0726ms total)
T20360 001:046 JLINK_WriteReg(PSP, 0x20001000)  returns 0x00 (0000ms, 0726ms total)
T20360 001:046 JLINK_WriteReg(CFBP, 0x00000000)  returns 0x00 (0000ms, 0726ms total)
T20360 001:046 JLINK_SetBPEx(Addr = 0x20000000, Type = 0xFFFFFFF2)  returns 0x00000008 (0000ms, 0726ms total)
T20360 001:046 JLINK_Go() -- CPU_ReadMem(4 bytes @ 0xE0001000) (0003ms, 0729ms total)
T20360 001:049 JLINK_IsHalted()  returns FALSE (0001ms, 0730ms total)
T20360 001:056 JLINK_IsHalted()  returns FALSE (0000ms, 0729ms total)
T20360 001:058 JLINK_IsHalted()  returns FALSE (0000ms, 0729ms total)
T20360 001:060 JLINK_IsHalted()  returns FALSE (0000ms, 0729ms total)
T20360 001:062 JLINK_IsHalted() -- CPU_ReadMem(2 bytes @ 0x20000000)  returns TRUE (0005ms, 0734ms total)
T20360 001:067 JLINK_ReadReg(R15 (PC))  returns 0x20000000 (0000ms, 0729ms total)
T20360 001:067 JLINK_ClrBPEx(BPHandle = 0x00000008)  returns 0x00 (0000ms, 0729ms total)
T20360 001:067 JLINK_ReadReg(R0)  returns 0x00000000 (0000ms, 0729ms total)
T20360 001:068 JLINK_WriteMem(0x20000190, 0x0400 Bytes, ...) - Data: 0E 46 17 46 00 F0 2A F8 45 F0 40 00 05 F0 E0 F8 ... -- CPU_WriteMem(1024 bytes @ 0x20000190)  returns 0x400 (0010ms, 0739ms total)
T20360 001:078 JLINK_WriteReg(R0, 0x08001000)  returns 0x00 (0000ms, 0739ms total)
T20360 001:078 JLINK_WriteReg(R1, 0x00000400)  returns 0x00 (0000ms, 0739ms total)
T20360 001:078 JLINK_WriteReg(R2, 0x20000190)  returns 0x00 (0000ms, 0739ms total)
T20360 001:078 JLINK_WriteReg(R3, 0x00000000)  returns 0x00 (0001ms, 0740ms total)
T20360 001:079 JLINK_WriteReg(R4, 0x00000000)  returns 0x00 (0000ms, 0740ms total)
T20360 001:079 JLINK_WriteReg(R5, 0x00000000)  returns 0x00 (0000ms, 0740ms total)
T20360 001:079 JLINK_WriteReg(R6, 0x00000000)  returns 0x00 (0000ms, 0740ms total)
T20360 001:079 JLINK_WriteReg(R7, 0x00000000)  returns 0x00 (0000ms, 0740ms total)
T20360 001:079 JLINK_WriteReg(R8, 0x00000000)  returns 0x00 (0000ms, 0740ms total)
T20360 001:079 JLINK_WriteReg(R9, 0x2000018C)  returns 0x00 (0000ms, 0740ms total)
T20360 001:079 JLINK_WriteReg(R10, 0x00000000)  returns 0x00 (0000ms, 0740ms total)
T20360 001:079 JLINK_WriteReg(R11, 0x00000000)  returns 0x00 (0000ms, 0740ms total)
T20360 001:079 JLINK_WriteReg(R12, 0x00000000)  returns 0x00 (0000ms, 0740ms total)
T20360 001:079 JLINK_WriteReg(R13 (SP), 0x20001000)  returns 0x00 (0000ms, 0740ms total)
T20360 001:079 JLINK_WriteReg(R14, 0x20000001)  returns 0x00 (0000ms, 0740ms total)
T20360 001:079 JLINK_WriteReg(R15 (PC), 0x2000011A)  returns 0x00 (0000ms, 0740ms total)
T20360 001:079 JLINK_WriteReg(XPSR, 0x01000000)  returns 0x00 (0000ms, 0740ms total)
T20360 001:079 JLINK_WriteReg(MSP, 0x20001000)  returns 0x00 (0000ms, 0740ms total)
T20360 001:079 JLINK_WriteReg(PSP, 0x20001000)  returns 0x00 (0000ms, 0740ms total)
T20360 001:079 JLINK_WriteReg(CFBP, 0x00000000)  returns 0x00 (0000ms, 0740ms total)
T20360 001:079 JLINK_SetBPEx(Addr = 0x20000000, Type = 0xFFFFFFF2)  returns 0x00000009 (0000ms, 0740ms total)
T20360 001:079 JLINK_Go() -- CPU_ReadMem(4 bytes @ 0xE0001000) (0003ms, 0743ms total)
T20360 001:082 JLINK_IsHalted()  returns FALSE (0001ms, 0744ms total)
T20360 001:088 JLINK_IsHalted()  returns FALSE (0000ms, 0743ms total)
T20360 001:090 JLINK_IsHalted()  returns FALSE (0000ms, 0743ms total)
T20360 001:092 JLINK_IsHalted()  returns FALSE (0000ms, 0743ms total)
T20360 001:094 JLINK_IsHalted()  returns FALSE (0000ms, 0743ms total)
T20360 001:096 JLINK_IsHalted() -- CPU_ReadMem(2 bytes @ 0x20000000)  returns TRUE (0005ms, 0748ms total)
T20360 001:101 JLINK_ReadReg(R15 (PC))  returns 0x20000000 (0001ms, 0744ms total)
T20360 001:102 JLINK_ClrBPEx(BPHandle = 0x00000009)  returns 0x00 (0000ms, 0744ms total)
T20360 001:102 JLINK_ReadReg(R0)  returns 0x00000000 (0000ms, 0744ms total)
T20360 001:102 JLINK_WriteMem(0x20000190, 0x0400 Bytes, ...) - Data: 03 49 49 69 41 F4 80 31 01 4A 51 61 70 47 00 00 ... -- CPU_WriteMem(1024 bytes @ 0x20000190)  returns 0x400 (0011ms, 0755ms total)
T20360 001:113 JLINK_WriteReg(R0, 0x08001400)  returns 0x00 (0000ms, 0755ms total)
T20360 001:113 JLINK_WriteReg(R1, 0x00000400)  returns 0x00 (0000ms, 0755ms total)
T20360 001:113 JLINK_WriteReg(R2, 0x20000190)  returns 0x00 (0000ms, 0755ms total)
T20360 001:113 JLINK_WriteReg(R3, 0x00000000)  returns 0x00 (0000ms, 0755ms total)
T20360 001:113 JLINK_WriteReg(R4, 0x00000000)  returns 0x00 (0000ms, 0755ms total)
T20360 001:113 JLINK_WriteReg(R5, 0x00000000)  returns 0x00 (0000ms, 0755ms total)
T20360 001:113 JLINK_WriteReg(R6, 0x00000000)  returns 0x00 (0000ms, 0755ms total)
T20360 001:113 JLINK_WriteReg(R7, 0x00000000)  returns 0x00 (0000ms, 0755ms total)
T20360 001:113 JLINK_WriteReg(R8, 0x00000000)  returns 0x00 (0000ms, 0755ms total)
T20360 001:113 JLINK_WriteReg(R9, 0x2000018C)  returns 0x00 (0000ms, 0755ms total)
T20360 001:113 JLINK_WriteReg(R10, 0x00000000)  returns 0x00 (0000ms, 0755ms total)
T20360 001:113 JLINK_WriteReg(R11, 0x00000000)  returns 0x00 (0000ms, 0755ms total)
T20360 001:113 JLINK_WriteReg(R12, 0x00000000)  returns 0x00 (0000ms, 0755ms total)
T20360 001:113 JLINK_WriteReg(R13 (SP), 0x20001000)  returns 0x00 (0000ms, 0755ms total)
T20360 001:113 JLINK_WriteReg(R14, 0x20000001)  returns 0x00 (0000ms, 0755ms total)
T20360 001:113 JLINK_WriteReg(R15 (PC), 0x2000011A)  returns 0x00 (0000ms, 0755ms total)
T20360 001:113 JLINK_WriteReg(XPSR, 0x01000000)  returns 0x00 (0000ms, 0755ms total)
T20360 001:113 JLINK_WriteReg(MSP, 0x20001000)  returns 0x00 (0000ms, 0755ms total)
T20360 001:113 JLINK_WriteReg(PSP, 0x20001000)  returns 0x00 (0000ms, 0755ms total)
T20360 001:113 JLINK_WriteReg(CFBP, 0x00000000)  returns 0x00 (0000ms, 0755ms total)
T20360 001:113 JLINK_SetBPEx(Addr = 0x20000000, Type = 0xFFFFFFF2)  returns 0x0000000A (0001ms, 0756ms total)
T20360 001:114 JLINK_Go() -- CPU_ReadMem(4 bytes @ 0xE0001000) (0003ms, 0759ms total)
T20360 001:117 JLINK_IsHalted()  returns FALSE (0000ms, 0759ms total)
T20360 001:119 JLINK_IsHalted()  returns FALSE (0000ms, 0759ms total)
T20360 001:121 JLINK_IsHalted()  returns FALSE (0000ms, 0759ms total)
T20360 001:123 JLINK_IsHalted()  returns FALSE (0000ms, 0759ms total)
T20360 001:125 JLINK_IsHalted()  returns FALSE (0000ms, 0759ms total)
T20360 001:127 JLINK_IsHalted()  returns FALSE (0000ms, 0759ms total)
T20360 001:129 JLINK_IsHalted() -- CPU_ReadMem(2 bytes @ 0x20000000)  returns TRUE (0005ms, 0764ms total)
T20360 001:134 JLINK_ReadReg(R15 (PC))  returns 0x20000000 (0000ms, 0759ms total)
T20360 001:134 JLINK_ClrBPEx(BPHandle = 0x0000000A)  returns 0x00 (0000ms, 0759ms total)
T20360 001:134 JLINK_ReadReg(R0)  returns 0x00000000 (0000ms, 0759ms total)
T20360 001:136 JLINK_WriteMem(0x20000190, 0x0400 Bytes, ...) - Data: 00 20 82 F8 54 00 00 BF 20 46 67 E7 00 00 04 50 ... -- CPU_WriteMem(1024 bytes @ 0x20000190)  returns 0x400 (0010ms, 0769ms total)
T20360 001:146 JLINK_WriteReg(R0, 0x08001800)  returns 0x00 (0000ms, 0769ms total)
T20360 001:146 JLINK_WriteReg(R1, 0x00000400)  returns 0x00 (0001ms, 0770ms total)
T20360 001:147 JLINK_WriteReg(R2, 0x20000190)  returns 0x00 (0000ms, 0770ms total)
T20360 001:147 JLINK_WriteReg(R3, 0x00000000)  returns 0x00 (0000ms, 0770ms total)
T20360 001:147 JLINK_WriteReg(R4, 0x00000000)  returns 0x00 (0000ms, 0770ms total)
T20360 001:147 JLINK_WriteReg(R5, 0x00000000)  returns 0x00 (0000ms, 0770ms total)
T20360 001:147 JLINK_WriteReg(R6, 0x00000000)  returns 0x00 (0000ms, 0770ms total)
T20360 001:147 JLINK_WriteReg(R7, 0x00000000)  returns 0x00 (0000ms, 0770ms total)
T20360 001:147 JLINK_WriteReg(R8, 0x00000000)  returns 0x00 (0000ms, 0770ms total)
T20360 001:147 JLINK_WriteReg(R9, 0x2000018C)  returns 0x00 (0000ms, 0770ms total)
T20360 001:147 JLINK_WriteReg(R10, 0x00000000)  returns 0x00 (0000ms, 0770ms total)
T20360 001:147 JLINK_WriteReg(R11, 0x00000000)  returns 0x00 (0000ms, 0770ms total)
T20360 001:147 JLINK_WriteReg(R12, 0x00000000)  returns 0x00 (0000ms, 0770ms total)
T20360 001:147 JLINK_WriteReg(R13 (SP), 0x20001000)  returns 0x00 (0000ms, 0770ms total)
T20360 001:147 JLINK_WriteReg(R14, 0x20000001)  returns 0x00 (0000ms, 0770ms total)
T20360 001:147 JLINK_WriteReg(R15 (PC), 0x2000011A)  returns 0x00 (0000ms, 0770ms total)
T20360 001:147 JLINK_WriteReg(XPSR, 0x01000000)  returns 0x00 (0000ms, 0770ms total)
T20360 001:147 JLINK_WriteReg(MSP, 0x20001000)  returns 0x00 (0000ms, 0770ms total)
T20360 001:147 JLINK_WriteReg(PSP, 0x20001000)  returns 0x00 (0000ms, 0770ms total)
T20360 001:147 JLINK_WriteReg(CFBP, 0x00000000)  returns 0x00 (0000ms, 0770ms total)
T20360 001:147 JLINK_SetBPEx(Addr = 0x20000000, Type = 0xFFFFFFF2)  returns 0x0000000B (0000ms, 0770ms total)
T20360 001:147 JLINK_Go() -- CPU_ReadMem(4 bytes @ 0xE0001000) (0004ms, 0774ms total)
T20360 001:151 JLINK_IsHalted()  returns FALSE (0000ms, 0774ms total)
T20360 001:153 JLINK_IsHalted()  returns FALSE (0000ms, 0774ms total)
T20360 001:155 JLINK_IsHalted()  returns FALSE (0000ms, 0774ms total)
T20360 001:157 JLINK_IsHalted()  returns FALSE (0000ms, 0774ms total)
T20360 001:166 JLINK_IsHalted() -- CPU_ReadMem(2 bytes @ 0x20000000)  returns TRUE (0005ms, 0779ms total)
T20360 001:171 JLINK_ReadReg(R15 (PC))  returns 0x20000000 (0000ms, 0774ms total)
T20360 001:171 JLINK_ClrBPEx(BPHandle = 0x0000000B)  returns 0x00 (0000ms, 0774ms total)
T20360 001:171 JLINK_ReadReg(R0)  returns 0x00000000 (0000ms, 0774ms total)
T20360 001:174 JLINK_WriteMem(0x20000190, 0x0400 Bytes, ...) - Data: 8C FC 06 FB 0C F6 8F 68 B7 40 38 43 16 68 70 61 ... -- CPU_WriteMem(1024 bytes @ 0x20000190)  returns 0x400 (0010ms, 0784ms total)
T20360 001:184 JLINK_WriteReg(R0, 0x08001C00)  returns 0x00 (0000ms, 0784ms total)
T20360 001:184 JLINK_WriteReg(R1, 0x00000400)  returns 0x00 (0000ms, 0784ms total)
T20360 001:184 JLINK_WriteReg(R2, 0x20000190)  returns 0x00 (0000ms, 0784ms total)
T20360 001:184 JLINK_WriteReg(R3, 0x00000000)  returns 0x00 (0000ms, 0784ms total)
T20360 001:184 JLINK_WriteReg(R4, 0x00000000)  returns 0x00 (0000ms, 0784ms total)
T20360 001:184 JLINK_WriteReg(R5, 0x00000000)  returns 0x00 (0001ms, 0785ms total)
T20360 001:185 JLINK_WriteReg(R6, 0x00000000)  returns 0x00 (0000ms, 0785ms total)
T20360 001:185 JLINK_WriteReg(R7, 0x00000000)  returns 0x00 (0000ms, 0785ms total)
T20360 001:185 JLINK_WriteReg(R8, 0x00000000)  returns 0x00 (0000ms, 0785ms total)
T20360 001:185 JLINK_WriteReg(R9, 0x2000018C)  returns 0x00 (0000ms, 0785ms total)
T20360 001:185 JLINK_WriteReg(R10, 0x00000000)  returns 0x00 (0000ms, 0785ms total)
T20360 001:185 JLINK_WriteReg(R11, 0x00000000)  returns 0x00 (0000ms, 0785ms total)
T20360 001:185 JLINK_WriteReg(R12, 0x00000000)  returns 0x00 (0000ms, 0785ms total)
T20360 001:185 JLINK_WriteReg(R13 (SP), 0x20001000)  returns 0x00 (0000ms, 0785ms total)
T20360 001:185 JLINK_WriteReg(R14, 0x20000001)  returns 0x00 (0000ms, 0785ms total)
T20360 001:185 JLINK_WriteReg(R15 (PC), 0x2000011A)  returns 0x00 (0000ms, 0785ms total)
T20360 001:185 JLINK_WriteReg(XPSR, 0x01000000)  returns 0x00 (0000ms, 0785ms total)
T20360 001:185 JLINK_WriteReg(MSP, 0x20001000)  returns 0x00 (0000ms, 0785ms total)
T20360 001:185 JLINK_WriteReg(PSP, 0x20001000)  returns 0x00 (0000ms, 0785ms total)
T20360 001:185 JLINK_WriteReg(CFBP, 0x00000000)  returns 0x00 (0000ms, 0785ms total)
T20360 001:185 JLINK_SetBPEx(Addr = 0x20000000, Type = 0xFFFFFFF2)  returns 0x0000000C (0000ms, 0785ms total)
T20360 001:185 JLINK_Go() -- CPU_ReadMem(4 bytes @ 0xE0001000) (0003ms, 0788ms total)
T20360 001:188 JLINK_IsHalted()  returns FALSE (0001ms, 0789ms total)
T20360 001:199 JLINK_IsHalted()  returns FALSE (0000ms, 0788ms total)
T20360 001:201 JLINK_IsHalted() -- CPU_ReadMem(2 bytes @ 0x20000000)  returns TRUE (0005ms, 0793ms total)
T20360 001:206 JLINK_ReadReg(R15 (PC))  returns 0x20000000 (0000ms, 0788ms total)
T20360 001:206 JLINK_ClrBPEx(BPHandle = 0x0000000C)  returns 0x00 (0000ms, 0788ms total)
T20360 001:206 JLINK_ReadReg(R0)  returns 0x00000000 (0000ms, 0788ms total)
T20360 001:207 JLINK_WriteMem(0x20000190, 0x0400 Bytes, ...) - Data: 80 32 92 FA A2 F2 B2 FA 82 F2 61 6A 91 40 40 EA ... -- CPU_WriteMem(1024 bytes @ 0x20000190)  returns 0x400 (0011ms, 0799ms total)
T20360 001:218 JLINK_WriteReg(R0, 0x08002000)  returns 0x00 (0000ms, 0799ms total)
T20360 001:218 JLINK_WriteReg(R1, 0x00000400)  returns 0x00 (0000ms, 0799ms total)
T20360 001:218 JLINK_WriteReg(R2, 0x20000190)  returns 0x00 (0000ms, 0799ms total)
T20360 001:218 JLINK_WriteReg(R3, 0x00000000)  returns 0x00 (0000ms, 0799ms total)
T20360 001:218 JLINK_WriteReg(R4, 0x00000000)  returns 0x00 (0000ms, 0799ms total)
T20360 001:218 JLINK_WriteReg(R5, 0x00000000)  returns 0x00 (0000ms, 0799ms total)
T20360 001:218 JLINK_WriteReg(R6, 0x00000000)  returns 0x00 (0000ms, 0799ms total)
T20360 001:218 JLINK_WriteReg(R7, 0x00000000)  returns 0x00 (0000ms, 0799ms total)
T20360 001:218 JLINK_WriteReg(R8, 0x00000000)  returns 0x00 (0000ms, 0799ms total)
T20360 001:218 JLINK_WriteReg(R9, 0x2000018C)  returns 0x00 (0000ms, 0799ms total)
T20360 001:218 JLINK_WriteReg(R10, 0x00000000)  returns 0x00 (0000ms, 0799ms total)
T20360 001:218 JLINK_WriteReg(R11, 0x00000000)  returns 0x00 (0000ms, 0799ms total)
T20360 001:218 JLINK_WriteReg(R12, 0x00000000)  returns 0x00 (0000ms, 0799ms total)
T20360 001:218 JLINK_WriteReg(R13 (SP), 0x20001000)  returns 0x00 (0000ms, 0799ms total)
T20360 001:218 JLINK_WriteReg(R14, 0x20000001)  returns 0x00 (0000ms, 0799ms total)
T20360 001:218 JLINK_WriteReg(R15 (PC), 0x2000011A)  returns 0x00 (0000ms, 0799ms total)
T20360 001:218 JLINK_WriteReg(XPSR, 0x01000000)  returns 0x00 (0000ms, 0799ms total)
T20360 001:218 JLINK_WriteReg(MSP, 0x20001000)  returns 0x00 (0000ms, 0799ms total)
T20360 001:218 JLINK_WriteReg(PSP, 0x20001000)  returns 0x00 (0000ms, 0799ms total)
T20360 001:218 JLINK_WriteReg(CFBP, 0x00000000)  returns 0x00 (0000ms, 0799ms total)
T20360 001:218 JLINK_SetBPEx(Addr = 0x20000000, Type = 0xFFFFFFF2)  returns 0x0000000D (0000ms, 0799ms total)
T20360 001:218 JLINK_Go() -- CPU_ReadMem(4 bytes @ 0xE0001000) (0003ms, 0802ms total)
T20360 001:221 JLINK_IsHalted()  returns FALSE (0001ms, 0803ms total)
T20360 001:224 JLINK_IsHalted()  returns FALSE (0000ms, 0802ms total)
T20360 001:226 JLINK_IsHalted()  returns FALSE (0000ms, 0802ms total)
T20360 001:228 JLINK_IsHalted()  returns FALSE (0000ms, 0802ms total)
T20360 001:230 JLINK_IsHalted()  returns FALSE (0000ms, 0802ms total)
T20360 001:232 JLINK_IsHalted()  returns FALSE (0002ms, 0804ms total)
T20360 001:236 JLINK_IsHalted() -- CPU_ReadMem(2 bytes @ 0x20000000)  returns TRUE (0005ms, 0807ms total)
T20360 001:241 JLINK_ReadReg(R15 (PC))  returns 0x20000000 (0000ms, 0802ms total)
T20360 001:241 JLINK_ClrBPEx(BPHandle = 0x0000000D)  returns 0x00 (0000ms, 0802ms total)
T20360 001:241 JLINK_ReadReg(R0)  returns 0x00000000 (0000ms, 0802ms total)
T20360 001:241 JLINK_WriteMem(0x20000190, 0x0400 Bytes, ...) - Data: 00 01 04 50 08 03 04 50 00 02 04 50 E7 09 00 08 ... -- CPU_WriteMem(1024 bytes @ 0x20000190)  returns 0x400 (0011ms, 0813ms total)
T20360 001:252 JLINK_WriteReg(R0, 0x08002400)  returns 0x00 (0000ms, 0813ms total)
T20360 001:252 JLINK_WriteReg(R1, 0x00000400)  returns 0x00 (0000ms, 0813ms total)
T20360 001:252 JLINK_WriteReg(R2, 0x20000190)  returns 0x00 (0000ms, 0813ms total)
T20360 001:252 JLINK_WriteReg(R3, 0x00000000)  returns 0x00 (0000ms, 0813ms total)
T20360 001:252 JLINK_WriteReg(R4, 0x00000000)  returns 0x00 (0000ms, 0813ms total)
T20360 001:252 JLINK_WriteReg(R5, 0x00000000)  returns 0x00 (0000ms, 0813ms total)
T20360 001:252 JLINK_WriteReg(R6, 0x00000000)  returns 0x00 (0000ms, 0813ms total)
T20360 001:252 JLINK_WriteReg(R7, 0x00000000)  returns 0x00 (0000ms, 0813ms total)
T20360 001:252 JLINK_WriteReg(R8, 0x00000000)  returns 0x00 (0000ms, 0813ms total)
T20360 001:252 JLINK_WriteReg(R9, 0x2000018C)  returns 0x00 (0000ms, 0813ms total)
T20360 001:252 JLINK_WriteReg(R10, 0x00000000)  returns 0x00 (0000ms, 0813ms total)
T20360 001:252 JLINK_WriteReg(R11, 0x00000000)  returns 0x00 (0000ms, 0813ms total)
T20360 001:252 JLINK_WriteReg(R12, 0x00000000)  returns 0x00 (0000ms, 0813ms total)
T20360 001:252 JLINK_WriteReg(R13 (SP), 0x20001000)  returns 0x00 (0000ms, 0813ms total)
T20360 001:252 JLINK_WriteReg(R14, 0x20000001)  returns 0x00 (0000ms, 0813ms total)
T20360 001:252 JLINK_WriteReg(R15 (PC), 0x2000011A)  returns 0x00 (0000ms, 0813ms total)
T20360 001:252 JLINK_WriteReg(XPSR, 0x01000000)  returns 0x00 (0000ms, 0813ms total)
T20360 001:252 JLINK_WriteReg(MSP, 0x20001000)  returns 0x00 (0000ms, 0813ms total)
T20360 001:252 JLINK_WriteReg(PSP, 0x20001000)  returns 0x00 (0000ms, 0813ms total)
T20360 001:252 JLINK_WriteReg(CFBP, 0x00000000)  returns 0x00 (0000ms, 0813ms total)
T20360 001:252 JLINK_SetBPEx(Addr = 0x20000000, Type = 0xFFFFFFF2)  returns 0x0000000E (0000ms, 0813ms total)
T20360 001:252 JLINK_Go() -- CPU_ReadMem(4 bytes @ 0xE0001000) (0003ms, 0816ms total)
T20360 001:255 JLINK_IsHalted()  returns FALSE (0001ms, 0817ms total)
T20360 001:258 JLINK_IsHalted()  returns FALSE (0000ms, 0816ms total)
T20360 001:260 JLINK_IsHalted()  returns FALSE (0000ms, 0816ms total)
T20360 001:262 JLINK_IsHalted()  returns FALSE (0000ms, 0816ms total)
T20360 001:264 JLINK_IsHalted()  returns FALSE (0000ms, 0816ms total)
T20360 001:266 JLINK_IsHalted()  returns FALSE (0000ms, 0816ms total)
T20360 001:268 JLINK_IsHalted() -- CPU_ReadMem(2 bytes @ 0x20000000)  returns TRUE (0005ms, 0821ms total)
T20360 001:273 JLINK_ReadReg(R15 (PC))  returns 0x20000000 (0000ms, 0816ms total)
T20360 001:273 JLINK_ClrBPEx(BPHandle = 0x0000000E)  returns 0x00 (0000ms, 0816ms total)
T20360 001:273 JLINK_ReadReg(R0)  returns 0x00000000 (0000ms, 0816ms total)
T20360 001:273 JLINK_WriteMem(0x20000190, 0x0400 Bytes, ...) - Data: 08 60 01 20 84 F8 25 00 94 F8 44 10 02 20 88 40 ... -- CPU_WriteMem(1024 bytes @ 0x20000190)  returns 0x400 (0010ms, 0826ms total)
T20360 001:283 JLINK_WriteReg(R0, 0x08002800)  returns 0x00 (0000ms, 0826ms total)
T20360 001:283 JLINK_WriteReg(R1, 0x00000400)  returns 0x00 (0000ms, 0826ms total)
T20360 001:283 JLINK_WriteReg(R2, 0x20000190)  returns 0x00 (0000ms, 0826ms total)
T20360 001:283 JLINK_WriteReg(R3, 0x00000000)  returns 0x00 (0000ms, 0826ms total)
T20360 001:283 JLINK_WriteReg(R4, 0x00000000)  returns 0x00 (0000ms, 0826ms total)
T20360 001:283 JLINK_WriteReg(R5, 0x00000000)  returns 0x00 (0000ms, 0826ms total)
T20360 001:284 JLINK_WriteReg(R6, 0x00000000)  returns 0x00 (0000ms, 0826ms total)
T20360 001:284 JLINK_WriteReg(R7, 0x00000000)  returns 0x00 (0000ms, 0826ms total)
T20360 001:284 JLINK_WriteReg(R8, 0x00000000)  returns 0x00 (0000ms, 0826ms total)
T20360 001:284 JLINK_WriteReg(R9, 0x2000018C)  returns 0x00 (0000ms, 0826ms total)
T20360 001:284 JLINK_WriteReg(R10, 0x00000000)  returns 0x00 (0000ms, 0826ms total)
T20360 001:284 JLINK_WriteReg(R11, 0x00000000)  returns 0x00 (0000ms, 0826ms total)
T20360 001:284 JLINK_WriteReg(R12, 0x00000000)  returns 0x00 (0000ms, 0826ms total)
T20360 001:284 JLINK_WriteReg(R13 (SP), 0x20001000)  returns 0x00 (0000ms, 0826ms total)
T20360 001:284 JLINK_WriteReg(R14, 0x20000001)  returns 0x00 (0000ms, 0826ms total)
T20360 001:284 JLINK_WriteReg(R15 (PC), 0x2000011A)  returns 0x00 (0000ms, 0826ms total)
T20360 001:284 JLINK_WriteReg(XPSR, 0x01000000)  returns 0x00 (0000ms, 0826ms total)
T20360 001:284 JLINK_WriteReg(MSP, 0x20001000)  returns 0x00 (0000ms, 0826ms total)
T20360 001:284 JLINK_WriteReg(PSP, 0x20001000)  returns 0x00 (0000ms, 0826ms total)
T20360 001:284 JLINK_WriteReg(CFBP, 0x00000000)  returns 0x00 (0000ms, 0826ms total)
T20360 001:284 JLINK_SetBPEx(Addr = 0x20000000, Type = 0xFFFFFFF2)  returns 0x0000000F (0000ms, 0826ms total)
T20360 001:284 JLINK_Go() -- CPU_ReadMem(4 bytes @ 0xE0001000) (0002ms, 0828ms total)
T20360 001:286 JLINK_IsHalted()  returns FALSE (0001ms, 0829ms total)
T20360 001:291 JLINK_IsHalted()  returns FALSE (0000ms, 0828ms total)
T20360 001:293 JLINK_IsHalted()  returns FALSE (0000ms, 0828ms total)
T20360 001:295 JLINK_IsHalted()  returns FALSE (0000ms, 0828ms total)
T20360 001:297 JLINK_IsHalted()  returns FALSE (0000ms, 0828ms total)
T20360 001:299 JLINK_IsHalted() -- CPU_ReadMem(2 bytes @ 0x20000000)  returns TRUE (0004ms, 0832ms total)
T20360 001:303 JLINK_ReadReg(R15 (PC))  returns 0x20000000 (0000ms, 0828ms total)
T20360 001:303 JLINK_ClrBPEx(BPHandle = 0x0000000F)  returns 0x00 (0000ms, 0828ms total)
T20360 001:304 JLINK_ReadReg(R0)  returns 0x00000000 (0000ms, 0829ms total)
T20360 001:304 JLINK_WriteMem(0x20000190, 0x0400 Bytes, ...) - Data: 80 46 B9 F1 00 0F 05 D0 08 48 40 69 20 EA 09 00 ... -- CPU_WriteMem(1024 bytes @ 0x20000190)  returns 0x400 (0010ms, 0839ms total)
T20360 001:314 JLINK_WriteReg(R0, 0x08002C00)  returns 0x00 (0000ms, 0839ms total)
T20360 001:314 JLINK_WriteReg(R1, 0x00000400)  returns 0x00 (0000ms, 0839ms total)
T20360 001:314 JLINK_WriteReg(R2, 0x20000190)  returns 0x00 (0000ms, 0839ms total)
T20360 001:314 JLINK_WriteReg(R3, 0x00000000)  returns 0x00 (0000ms, 0839ms total)
T20360 001:314 JLINK_WriteReg(R4, 0x00000000)  returns 0x00 (0000ms, 0839ms total)
T20360 001:314 JLINK_WriteReg(R5, 0x00000000)  returns 0x00 (0000ms, 0839ms total)
T20360 001:314 JLINK_WriteReg(R6, 0x00000000)  returns 0x00 (0000ms, 0839ms total)
T20360 001:314 JLINK_WriteReg(R7, 0x00000000)  returns 0x00 (0000ms, 0839ms total)
T20360 001:314 JLINK_WriteReg(R8, 0x00000000)  returns 0x00 (0000ms, 0839ms total)
T20360 001:314 JLINK_WriteReg(R9, 0x2000018C)  returns 0x00 (0000ms, 0839ms total)
T20360 001:314 JLINK_WriteReg(R10, 0x00000000)  returns 0x00 (0000ms, 0839ms total)
T20360 001:314 JLINK_WriteReg(R11, 0x00000000)  returns 0x00 (0000ms, 0839ms total)
T20360 001:314 JLINK_WriteReg(R12, 0x00000000)  returns 0x00 (0000ms, 0839ms total)
T20360 001:314 JLINK_WriteReg(R13 (SP), 0x20001000)  returns 0x00 (0000ms, 0839ms total)
T20360 001:314 JLINK_WriteReg(R14, 0x20000001)  returns 0x00 (0000ms, 0839ms total)
T20360 001:314 JLINK_WriteReg(R15 (PC), 0x2000011A)  returns 0x00 (0000ms, 0839ms total)
T20360 001:314 JLINK_WriteReg(XPSR, 0x01000000)  returns 0x00 (0000ms, 0839ms total)
T20360 001:314 JLINK_WriteReg(MSP, 0x20001000)  returns 0x00 (0000ms, 0839ms total)
T20360 001:314 JLINK_WriteReg(PSP, 0x20001000)  returns 0x00 (0000ms, 0839ms total)
